! Created Mon Jul 15 18:13:45 2019
# hz S ma R 50
! 4 Port Network Data from SP1.SP block
! freq  magS11  angS11  magS12  angS12  magS13  angS13  magS14  angS14  
!       magS21  angS21  magS22  angS22  magS23  angS23  magS24  angS24  
!       magS31  angS31  magS32  angS32  magS33  angS33  magS34  angS34  
!       magS41  angS41  magS42  angS42  magS43  angS43  magS44  angS44  
!     
          50000000      0.0279462913        -45.0232617        0.974693659        -17.9766761       0.0103679743         67.4129318      0.00242049478        -114.507933
                      0.974693659        -17.9766761       0.0231400883        -40.7025219      0.00242075445        -114.531809       0.0102922797         71.5104276
                     0.0103679734         67.4129345       0.0024207535        -114.531787       0.0279436855        -44.9440699        0.974672427           -17.9904
                    0.00242049334        -114.507899       0.0102922826         71.5104245        0.974672427           -17.9904       0.0231458597         -40.611237

          60000000      0.0304171212        -51.8809224        0.973482681        -21.5534496       0.0123188974         64.1096527      0.00287788288        -115.839936
                      0.973482681        -21.5534496       0.0236921354        -48.6691884      0.00287820189        -115.868852       0.0122088898         69.1034998
                     0.0123188975         64.1096528      0.00287820303        -115.868821       0.0304074691        -51.8030411        0.973461787        -21.5698841
                    0.00287788406        -115.839907       0.0122088866         69.1034915        0.973461787        -21.5698841       0.0236922687        -48.5707508

          70000000      0.0331978568        -58.1650773        0.972174936        -25.1226392       0.0141873335         60.3465961      0.00333629187        -117.797526
                      0.972174936        -25.1226392       0.0243564687        -56.6876243      0.00333664938        -117.831763       0.0140740711         66.2459635
                     0.0141873336         60.3465956      0.00333665038        -117.831739       0.0331809158        -58.0912967        0.972154502        -25.1417977
                    0.00333629288        -117.797501       0.0140740686         66.2459564        0.972154501        -25.1417977       0.0243498063        -56.5850406

          80000000      0.0362031366        -63.9142911        0.970790078        -28.6844615       0.0159859222         56.5384664      0.00380086198        -119.913359
                      0.970790078        -28.6844615       0.0250815336        -64.7637962      0.00380124304        -119.952912       0.0158764354         63.3823062
                     0.0159859221         56.5384666      0.00380124351        -119.952893       0.0361791703        -63.8467202        0.970770144        -28.7063505
                    0.00380086244        -119.913341       0.0158764344         63.3823015        0.970770144        -28.7063505       0.0250677901        -64.6603907

          90000000      0.0393714577        -69.3843873        0.969359691        -32.2412329       0.0177111453         52.6975582      0.00427474512        -122.126554
                      0.969359691        -32.2412329       0.0258449122        -73.0232846      0.00427513963        -122.171404       0.0176136772         60.5278292
                     0.0177111454         52.6975581      0.00427513977        -122.171404       0.0393407006        -69.3242441        0.969340272        -32.2658584
                     0.0042747453        -122.126553       0.0176136762         60.5278318        0.969340272        -32.2658584       0.0258238936        -72.9225763

         100000000      0.0427034692        -74.4726023        0.967880353        -35.7910622       0.0193534161         48.8253145      0.00475974066        -124.445388
                      0.967880353        -35.7910622       0.0266957625          -81.33272      0.00476014054        -124.495416       0.0192771006         57.6939379
                     0.0193534161         48.8253141      0.00476014096        -124.495412       0.0426664402        -74.4207916        0.967861444        -35.8184293
                    0.00475974108        -124.445385       0.0192770998         57.6939373        0.967861444        -35.8184293       0.0266677872        -81.2381357

         110000000      0.0461937878        -79.2593164        0.966360825        -39.3287643       0.0208990712         44.9049425      0.00525515089        -126.856529
                      0.966360825        -39.3287643       0.0277089448        -89.5867968      0.00525550359        -126.911851       0.0208579846         54.8940477
                     0.0208990712         44.9049421      0.00525550399        -126.911849       0.0461519755         -79.215514        0.966342005        -39.3588769
                    0.00525515128        -126.856527       0.0208579839         54.8940478        0.966342005        -39.3588769        0.027673439        -89.5011846

         120000000      0.0497635883        -83.8800601        0.964825333        -42.8641129       0.0223551262         40.9655216      0.00576662487         -129.35582
                      0.964825333        -42.8641129       0.0287885056        -97.9833583      0.00576692768        -129.416251        0.022360471         52.1210092
                     0.0223551262         40.9655214      0.00576692804         -129.41625       0.0497170267        -83.8451586        0.964806883         -42.896978
                    0.00576662522         -129.35582       0.0223604704         52.1210097        0.964806883         -42.896978       0.0287467305        -97.9089625

         130000000      0.0534155663        -88.4557523        0.963281597        -46.3987739       0.0237213559         37.0022402      0.00629685799        -131.932944
                      0.963281597        -46.3987739       0.0299912309        -106.540671      0.00629710052        -131.998397       0.0237858907         49.3832272
                     0.0237213559         37.0022402      0.00629710083        -131.998397        0.053364268        -88.4303494        0.963263647        -46.4343994
                     0.0062968583        -131.932944       0.0237858903         49.3832279        0.963263647        -46.4343994       0.0299445214        -106.479717

         140000000      0.0571121069        -92.7358251        0.961720115        -49.9214502       0.0249708058         33.0044293      0.00684439023        -134.617516
                      0.961720115        -49.9214502       0.0313281332        -114.854886      0.00684455701        -134.687913       0.0251082229         46.7074992
                     0.0249708058         33.0044293      0.00684455727        -134.687913       0.0570567265        -92.7200208        0.961702707        -49.9598422
                    0.00684439049        -134.617517       0.0251082226         46.7074999        0.961702708        -49.9598422       0.0312780876        -114.808221

         150000000      0.0608817971        -96.9411326        0.960150174        -53.4402925       0.0261175897         28.9711274       0.0074114039        -137.386977
                      0.960150174        -53.4402925       0.0328593905        -123.113833      0.00741147142        -137.462276       0.0263445331         44.0844469
                     0.0261175896         28.9711274      0.00741147164        -137.462277       0.0608227136         -96.935099        0.960133289        -53.4814597
                    0.00741140412        -137.386978       0.0263445329         44.0844476        0.960133289        -53.4814597       0.0328076044        -123.081997

         160000000      0.0647136432        -101.097542        0.958572263          -56.95923       0.0271642162         24.8976363      0.00800001875        -140.248318
                      0.958572263          -56.95923       0.0345877004        -131.390115      0.00799996276        -140.328459       0.0274999817         41.5135337
                     0.0271642162         24.8976364      0.00799996294         -140.32846       0.0646512625        -101.101445        0.958555851        -57.0031789
                    0.00800001893        -140.248318       0.0274999815         41.5135344        0.958555851        -57.0031789       0.0345359565        -131.372893

         170000000      0.0684771905        -105.087481        0.957008621        -60.4668722         0.02808225         20.7705954       0.0086075148        -143.219699
                      0.957008621        -60.4668722       0.0364251078         -139.32611      0.00860730713        -143.304617       0.0285473142         39.0238048
                     0.0280822499         20.7705955      0.00860730727        -143.304618       0.0684122792        -105.101072        0.956992598        -60.5136092
                    0.00860751495          -143.2197       0.0285473141         39.0238054        0.956992598        -60.5136092       0.0363751326        -139.322267

         180000000      0.0722722806        -109.015502        0.955440607        -63.9724708       0.0288907283         16.5907431      0.00923585202        -146.283573
                      0.955440607        -63.9724708       0.0384699428         -147.14193      0.00923546524        -146.373196       0.0295085125         36.6017089
                     0.0288907282         16.5907433      0.00923546536        -146.373197       0.0722054379        -109.038863        0.955424888        -64.0220009
                    0.00923585213        -146.283574       0.0295085125         36.6017095        0.955424888        -64.0220009       0.0384235498        -147.149964

         190000000      0.0761324379        -112.936427        0.953864961        -67.4772505        0.029592619         12.3566655       0.0098862614        -149.429458
                      0.953864961        -67.4772505       0.0407837604        -154.803545       0.0098856668        -149.523714       0.0303892503         34.2485736
                     0.0295926189         12.3566656      0.00988566689        -149.523715       0.0760641954        -112.969731        0.953849454         -67.529579
                    0.00988626149        -149.429459       0.0303892503         34.2485741        0.953849454         -67.529579       0.0407427511        -154.821517

         200000000      0.0798859759        -116.743188        0.952306821        -70.9754427       0.0301682175         8.04734884       0.0105547983         -152.68231
                      0.952306821        -70.9754427        0.043188286        -162.196081       0.0105539693        -152.781119       0.0311708607         31.9886825
                     0.0301682175         8.04734898       0.0105539693         -152.78112       0.0798171734        -116.786268        0.952291415        -71.0305725
                     0.0105547984        -152.682311       0.0311708607          31.988683        0.952291415        -71.0305725       0.0431542642        -162.221935

         210000000      0.0836085128        -120.512481        0.950756875        -74.4695693       0.0306276652         3.66195659       0.0112422429        -156.023519
                      0.950756875        -74.4695693       0.0457832258        -169.350447       0.0112411454        -156.126784       0.0318670542         29.8184411
                     0.0306276652         3.66195674       0.0112411455        -156.126785       0.0835399189        -120.565326        0.950741433        -74.5275067
                      0.011242243         -156.02352       0.0318670543         29.8184415        0.950741433        -74.5275067       0.0457576646        -169.382117

         220000000      0.0872853377        -124.227441        0.949211377        -77.9605442        0.030971746       -0.810695454       0.0119471863        -159.452671
                      0.949211377        -77.9605442       0.0485405269        -176.291857       0.0119457944        -159.560327       0.0324804558         27.7453386
                     0.0309717459       -0.810695306       0.0119457944        -159.560328       0.0872177308        -124.290084        0.949195775        -78.0212922
                     0.0119471864        -159.452671       0.0324804559         27.7453389        0.949195775        -78.0212922       0.0485248132        -176.327328

         230000000       0.090855386        -127.894476        0.947681987        -81.4467183       0.0311985272        -5.38435989       0.0126673635        -162.966829
                      0.947681987        -81.4467183       0.0514044138         177.013133       0.0126656526        -163.078818       0.0330106573         25.7815235
                     0.0311985272        -5.38435975       0.0126656526        -163.078818       0.0907895674        -127.966905        0.947666092        -81.5102788
                     0.0126673635        -162.966829       0.0330106573         25.7815237        0.947666092        -81.5102788       0.0513997577         176.975626

         240000000      0.0943994767        -131.531076        0.946152871        -84.9310368       0.0313188711        -10.0650715       0.0134031281        -166.556275
                      0.946152871        -84.9310368       0.0544504803          170.51011        0.013401074        -166.672548       0.0334718647         23.9246894
                     0.0313188711        -10.0650713        0.013401074        -166.672548       0.0943362094        -131.613408        0.946136545         -84.997412
                     0.0134031281        -166.556275       0.0334718648         23.9246895        0.946136545         -84.997412       0.0544579845         170.472305

         250000000      0.0978304033        -135.131439        0.944639939         -88.410968       0.0313310027        -14.8719739       0.0141511029        -170.220365
                      0.944639939         -88.410968       0.0575941368         164.229327       0.0141486828        -170.340869       0.0338635444         22.1894447
                     0.0313310026        -14.8719738       0.0141486828         -170.34087       0.0977705252          -135.2237        0.944623027        -88.4801598
                     0.0141511029        -170.220365       0.0338635445         22.1894447        0.944623027        -88.4801598        0.057614707         164.192596

         260000000       0.101166908        -138.695503        0.943136319         -91.888043       0.0312429779        -19.8202196       0.0149097808        -173.954447
                      0.943136319         -91.888043       0.0608422574         158.130722       0.0149069739        -174.079149       0.0341957464         20.5798217
                     0.0312429779        -19.8202195       0.0149069739        -174.079149        0.101111222         -138.79777        0.943118669        -91.9600515
                     0.0149097808        -173.954447       0.0341957465         20.5798217        0.943118669        -91.9600515       0.0608766947         158.096308

         270000000       0.104451544        -142.245609        0.941639021        -95.3624534       0.0310656084        -24.9191703       0.0156793322        -177.747866
                      0.941639021        -95.3624534       0.0642404575         152.223924       0.0156761172         -177.87673       0.0344815744         19.0964685
                     0.0310656084        -24.9191701       0.0156761172         -177.87673        0.104400837        -142.358026        0.941620467        -95.4372799
                     0.0156793322        -177.747866       0.0344815745         19.0964684        0.941620467        -95.4372799       0.0642894164         152.192914

         280000000       0.107545007        -145.750435         0.94016509        -98.8326956        0.030799606        -30.2053965       0.0164529994         178.393708
                       0.94016509        -98.8326956       0.0676340995         146.478286       0.0164493591           178.2607       0.0347201345         17.7584238
                      0.030799606        -30.2053964       0.0164493592           178.2607        0.107500113        -145.873021        0.940145472        -98.9103374
                     0.0164529994         178.393708       0.0347201345         17.7584236        0.940145472        -98.9103374       0.0676981198         146.451444

         290000000       0.110564387        -149.244853        0.938701828        -102.300825       0.0304643572        -35.6832599       0.0172334212         174.484653
                      0.938701828        -102.300825       0.0711398375         140.896762       0.0172293375         174.347513       0.0349324603         16.5562535
                     0.0304643572        -35.6832598       0.0172293375         174.347512        0.110526037        -149.377775        0.938680982        -102.381281
                     0.0172334213         174.484653       0.0349324603         16.5562533        0.938680982        -102.381281       0.0712193592         140.874851

         300000000       0.113461251        -152.715766        0.937255134        -105.766878       0.0300701414        -41.3826845       0.0180166119         170.524393
                      0.937255134        -105.766878       0.0746975142          135.45225       0.0180120683         170.383124       0.0351269262         15.4969334
                     0.0300701414        -41.3826844       0.0180120684         170.383124        0.113430199         -152.85915        0.937232897        -105.850143
                     0.0180166119         170.524393       0.0351269262         15.4969331        0.937232897        -105.850143       0.0747928672         135.435867

         310000000       0.116193372         -156.16087        0.935823679        -109.227782       0.0296300131        -47.3275938       0.0187992367         166.521076
                      0.935823679        -109.227782       0.0782636442          130.15462       0.0187942201         166.375681       0.0353141936         14.5870934
                     0.0296300131        -47.3275937       0.0187942201         166.375681        0.116170427        -156.314821        0.935799873        -109.313853
                     0.0187992367         166.521076       0.0353141935         14.5870931        0.935799873        -109.313853       0.0783750304         130.144165

         320000000       0.118831657        -159.589115        0.934399718        -112.686513       0.0291658786        -53.5340136       0.0195817818         162.478665
                      0.934399718        -112.686513       0.0818935725         124.979851       0.0195762769         162.329136       0.0355127875         13.8156615
                     0.0291658785        -53.5340136       0.0195762769         162.329136        0.118817513        -159.753814        0.934374182        -112.775387
                     0.0195817818         162.478665       0.0355127874         13.8156612        0.934374182        -112.775387       0.0820211233         124.975746

         330000000       0.121142869        -162.988624        0.933031486        -116.141234        0.028693351        -60.0574582       0.0203537047         158.393881
                      0.933031486        -116.141234       0.0853585189         119.905999          0.0203477         158.240207       0.0357231867         13.2010177
                      0.028693351        -60.0574581       0.0203477001         158.240207        0.121138268        -163.164107        0.933004079          -116.2329
                     0.0203537048          158.39388       0.0357231865         13.2010173        0.933004079          -116.2329       0.0855023156         119.908427

